
T2418 000:265 SEGGER J-Link V5.12f Log File (0000ms, 0258ms total)
T2418 000:265 DLL Compiled: May 17 2016 16:03:35 (0000ms, 0258ms total)
T2418 000:265 Logging started @ 2017-04-18 15:32 (0000ms, 0258ms total)
T2418 000:265 JLINK_SetWarnOutHandler(...) (0000ms, 0258ms total)
T2418 000:265 JLINK_OpenEx(...)
Firmware: J-Link OB-SAM3U128-V2-NordicSemi compiled Mar 15 2016 18:03:17
Hardware: V1.00
S/N: 682926659  returns O.K. (0254ms, 0512ms total)
T2418 000:519 JLINK_SetErrorOutHandler(...) (0000ms, 0512ms total)
T2418 000:519 JLINK_ExecCommand("ProjectFile = "D:\school\Ele217\WeatherStationUiA\OsSide\JLinkSettings.ini"", ...)  returns 0x00 (0001ms, 0513ms total)
T2418 000:520 JLINK_ExecCommand("Device = nRF52832_xxAA", ...)Device "NRF52832_XXAA" selected.  returns 0x00 (0000ms, 0513ms total)
T2418 000:520 JLINK_ExecCommand("DisableConnectionTimeout", ...)  returns 0x01 (0000ms, 0513ms total)
T2418 000:520 JLINK_GetHardwareVersion()  returns 0x2710 (0000ms, 0513ms total)
T2418 000:520 JLINK_GetDLLVersion()  returns 51206 (0000ms, 0513ms total)
T2418 000:520 JLINK_GetFirmwareString(...) (0000ms, 0513ms total)
T2418 000:520 JLINK_GetDLLVersion()  returns 51206 (0000ms, 0513ms total)
T2418 000:520 JLINK_GetCompileDateTime() (0000ms, 0513ms total)
T2418 000:520 JLINK_GetFirmwareString(...) (0000ms, 0513ms total)
T2418 000:520 JLINK_GetHardwareVersion()  returns 0x2710 (0000ms, 0513ms total)
T2418 000:520 JLINK_TIF_Select(JLINKARM_TIF_SWD)  returns 0x00 (0001ms, 0514ms total)
T2418 000:521 JLINK_SetSpeed(5000) (0000ms, 0514ms total)
T2418 000:521 JLINK_GetId() >0x108 TIF>Found SWD-DP with ID 0x2BA01477 >0x0D TIF> >0x28 TIF> >0x0D TIF> >0x28 TIF> >0x0D TIF> >0x28 TIF> >0x0D TIF> >0x28 TIF> >0x35 TIF> >0x0D TIF> >0x28 TIF> >0x0D TIF> >0x28 TIF> >0x35 TIF> >0x35 TIF> >0x35 TIF> >0x0D TIF> >0x28 TIF> >0x0D TIF> >0x28 TIF> >0x0D TIF> >0x28 TIF> >0x35 TIF> >0x35 TIF> >0x0D TIF> >0x28 TIF> >0x35 TIF> >0x35 TIF>Found Cortex-M4 r0p1, Little endian. -- CPU_ReadMem(4 bytes @ 0xE000EDF0) -- CPU_ReadMem(4 bytes @ 0xE0002000)
FPUnit: 6 code (BP) slots and 2 literal slots -- CPU_ReadMem(4 bytes @ 0xE000EDFC) -- CPU_ReadMem(4 bytes @ 0xE0001000) -- CPU_WriteMem(4 bytes @ 0xE0001000) -- CPU_ReadMem(4 bytes @ 0xE000ED88) -- CPU_WriteMem(4 bytes @ 0xE000ED88) -- CPU_ReadMem(4 bytes @ 0xE000ED88) -- CPU_WriteMem(4 bytes @ 0xE000ED88)CoreSight components:ROMTbl 0 @ E00FF000 -- CPU_ReadMem(16 bytes @ 0xE00FF000) -- CPU_ReadMem(16 bytes @ 0xE000EFF0) -- CPU_ReadMem(16 bytes @ 0xE000EFE0)
ROMTbl 0 [0]: FFF0F000, CID: B105E00D, PID: 000BB00C SCS -- CPU_ReadMem(16 bytes @ 0xE0001FF0) -- CPU_ReadMem(16 bytes @ 0xE0001FE0)ROMTbl 0 [1]: FFF02000, CID: B105E00D, PID: 003BB002 DWT -- CPU_ReadMem(16 bytes @ 0xE0002FF0) -- CPU_ReadMem(16 bytes @ 0xE0002FE0)ROMTbl 0 [2]: FFF03000, CID: B105E00D, PID: 002BB003 FPB -- CPU_ReadMem(16 bytes @ 0xE0000FF0) -- CPU_ReadMem(16 bytes @ 0xE0000FE0)ROMTbl 0 [3]: FFF01000, CID: B105E00D, PID: 003BB001 ITM -- CPU_ReadMem(16 bytes @ 0xE00FF010)
 -- CPU_ReadMem(16 bytes @ 0xE0040FF0) -- CPU_ReadMem(16 bytes @ 0xE0040FE0)ROMTbl 0 [4]: FFF41000, CID: B105900D, PID: 000BB9A1 TPIU -- CPU_ReadMem(16 bytes @ 0xE0041FF0) -- CPU_ReadMem(16 bytes @ 0xE0041FE0)ROMTbl 0 [5]: FFF42000, CID: B105900D, PID: 000BB925 ETM >0x35 TIF>  returns 0x2BA01477 (0019ms, 0533ms total)
T2418 000:540 JLINK_GetDLLVersion()  returns 51206 (0000ms, 0533ms total)
T2418 000:540 JLINK_CORE_GetFound()  returns 0xE0000FF (0000ms, 0533ms total)
T2418 000:540 JLINK_GetDebugInfo(0x100) -- Value=0xE00FF000  returns 0x00 (0000ms, 0533ms total)
T2418 000:540 JLINK_GetDebugInfo(0x100) -- Value=0xE00FF000  returns 0x00 (0000ms, 0533ms total)
T2418 000:540 JLINK_GetDebugInfo(0x101) -- Value=0xE0041000  returns 0x00 (0000ms, 0533ms total)
T2418 000:540 JLINK_GetDebugInfo(0x102) -- Value=0x00000000  returns 0x00 (0000ms, 0533ms total)
T2418 000:540 JLINK_GetDebugInfo(0x103) -- Value=0xE0040000  returns 0x00 (0000ms, 0533ms total)
T2418 000:540 JLINK_GetDebugInfo(0x104) -- Value=0xE0000000  returns 0x00 (0000ms, 0533ms total)
T2418 000:540 JLINK_GetDebugInfo(0x105) -- Value=0xE0001000  returns 0x00 (0000ms, 0533ms total)
T2418 000:540 JLINK_GetDebugInfo(0x106) -- Value=0xE0002000  returns 0x00 (0000ms, 0533ms total)
T2418 000:540 JLINK_GetDebugInfo(0x107) -- Value=0xE000E000  returns 0x00 (0000ms, 0533ms total)
T2418 000:540 JLINK_GetDebugInfo(0x10C) -- Value=0xE000EDF0  returns 0x00 (0000ms, 0533ms total)
T2418 000:540 JLINK_ReadMemU32(0xE000EF40, 0x0001 Items, ...) -- CPU is running -- CPU_ReadMem(4 bytes @ 0xE000EF40) - Data: 21 00 11 10  returns 0x01 (0001ms, 0534ms total)
T2418 000:541 JLINK_ReadMemU32(0xE000EF44, 0x0001 Items, ...) -- CPU is running -- CPU_ReadMem(4 bytes @ 0xE000EF44) - Data: 11 00 00 11  returns 0x01 (0000ms, 0534ms total)
T2418 000:541 JLINK_ReadMemU32(0xE000ED00, 0x0001 Items, ...) -- CPU is running -- CPU_ReadMem(4 bytes @ 0xE000ED00) - Data: 41 C2 0F 41  returns 0x01 (0001ms, 0535ms total)
T2418 000:542 JLINK_SetResetType(JLINKARM_RESET_TYPE_NORMAL)  returns JLINKARM_RESET_TYPE_NORMAL (0000ms, 0535ms total)
T2418 000:542 JLINK_Reset() -- CPU is running -- CPU_WriteMem(4 bytes @ 0xE000EDF0) -- CPU is running -- CPU_WriteMem(4 bytes @ 0xE000EDFC) >0x35 TIF> -- CPU is running -- CPU_WriteMem(4 bytes @ 0xE000ED0C) -- CPU is running -- CPU_ReadMem(4 bytes @ 0xE000EDF0) -- CPU is running -- CPU_ReadMem(4 bytes @ 0xE000EDF0) -- CPU is running -- CPU_WriteMem(4 bytes @ 0xE000EDF0) -- CPU is running -- CPU_WriteMem(4 bytes @ 0xE000EDFC) -- CPU is running -- CPU_ReadMem(4 bytes @ 0xE000EDF0)
 -- CPU_WriteMem(4 bytes @ 0xE0002000) -- CPU_ReadMem(4 bytes @ 0xE000EDFC) -- CPU_ReadMem(4 bytes @ 0xE0001000) (0020ms, 0555ms total)
T2418 000:562 JLINK_ReadReg(R15 (PC))  returns 0x000006A4 (0000ms, 0555ms total)
T2418 000:562 JLINK_ReadReg(XPSR)  returns 0x01000000 (0000ms, 0555ms total)
T2418 000:562 JLINK_Halt()  returns 0x00 (0000ms, 0555ms total)
T2418 000:562 JLINK_IsHalted()  returns TRUE (0000ms, 0555ms total)
T2418 000:562 JLINK_ReadMemU32(0xE000EDF0, 0x0001 Items, ...) -- CPU_ReadMem(4 bytes @ 0xE000EDF0) - Data: 03 00 03 00  returns 0x01 (0001ms, 0556ms total)
T2418 000:563 JLINK_WriteU32(0xE000EDF0, 0xA05F0003) -- CPU_WriteMem(4 bytes @ 0xE000EDF0)  returns 0x00 (0000ms, 0556ms total)
T2418 000:563 JLINK_WriteU32(0xE000EDFC, 0x01000000) -- CPU_WriteMem(4 bytes @ 0xE000EDFC)  returns 0x00 (0001ms, 0557ms total)
T2418 000:564 JLINK_GetHWStatus(...)  returns 0x00 (0000ms, 0557ms total)
T2418 000:564 JLINK_GetNumBPUnits(Type = 0xFFFFFF00)  returns 0x06 (0000ms, 0557ms total)
T2418 000:564 JLINK_GetNumBPUnits(Type = 0xF0)  returns 0x2000 (0000ms, 0557ms total)
T2418 000:564 JLINK_GetNumWPUnits()  returns 0x04 (0000ms, 0557ms total)
T2418 000:564 JLINK_GetSpeed()  returns 0x3E8 (0000ms, 0557ms total)
T2418 000:564 JLINK_ReadMemU32(0xE000E004, 0x0001 Items, ...) -- CPU_ReadMem(4 bytes @ 0xE000E004) - Data: 01 00 00 00  returns 0x01 (0001ms, 0558ms total)
T2418 000:565 JLINK_ReadMemU32(0xE000E004, 0x0001 Items, ...) -- CPU_ReadMem(4 bytes @ 0xE000E004) - Data: 01 00 00 00  returns 0x01 (0000ms, 0558ms total)
T2418 000:565 JLINK_WriteMem(0xE0001000, 0x001C Bytes, ...) - Data: 01 00 00 00 00 00 00 00 00 00 00 00 00 00 00 00 ... -- CPU_WriteMem(28 bytes @ 0xE0001000)  returns 0x1C (0001ms, 0559ms total)
T2418 000:566 JLINK_ReadMem (0xE0001000, 0x001C Bytes, ...) -- CPU_ReadMem(28 bytes @ 0xE0001000) - Data: 01 00 00 40 00 00 00 00 00 00 00 00 00 00 00 00 ...  returns 0x00 (0001ms, 0560ms total)
T2418 000:567 JLINK_ReadReg(R15 (PC))  returns 0x000006A4 (0000ms, 0560ms total)
T2418 000:567 JLINK_ReadReg(XPSR)  returns 0x01000000 (0000ms, 0560ms total)
T2418 000:650 JLINK_SetResetType(JLINKARM_RESET_TYPE_NORMAL)  returns JLINKARM_RESET_TYPE_NORMAL (0000ms, 0560ms total)
T2418 000:650 JLINK_Reset() -- CPU_WriteMem(4 bytes @ 0xE000EDF0) -- CPU_WriteMem(4 bytes @ 0xE000EDFC) >0x35 TIF> -- CPU_WriteMem(4 bytes @ 0xE000ED0C) -- CPU_ReadMem(4 bytes @ 0xE000EDF0) -- CPU_ReadMem(4 bytes @ 0xE000EDF0) -- CPU_WriteMem(4 bytes @ 0xE000EDF0) -- CPU_WriteMem(4 bytes @ 0xE000EDFC) -- CPU is running -- CPU_ReadMem(4 bytes @ 0xE000EDF0) -- CPU_WriteMem(4 bytes @ 0xE0002000) -- CPU_ReadMem(4 bytes @ 0xE000EDFC) -- CPU_ReadMem(4 bytes @ 0xE0001000) (0022ms, 0582ms total)
T2418 000:672 JLINK_ReadReg(R15 (PC))  returns 0x000006A4 (0000ms, 0582ms total)
T2418 000:672 JLINK_ReadReg(XPSR)  returns 0x01000000 (0000ms, 0582ms total)
T2418 000:672 JLINK_ReadMem (0x000006A4, 0x003C Bytes, ...) -- CPU_ReadMem(128 bytes @ 0x00000680) -- Updating C cache (128 bytes @ 0x00000680) -- Read from C cache (60 bytes @ 0x000006A4) - Data: 09 48 80 47 09 48 00 47 FE E7 FE E7 FE E7 FE E7 ...  returns 0x00 (0002ms, 0584ms total)
T2418 000:790 JLINK_ReadMem (0x000050DC, 0x0004 Bytes, ...) -- CPU_ReadMem(64 bytes @ 0x000050C0) -- Updating C cache (64 bytes @ 0x000050C0) -- Read from C cache (4 bytes @ 0x000050DC) - Data: 52 00 04 00  returns 0x00 (0001ms, 0585ms total)
T2418 000:791 JLINK_ReadMem (0x000050BC, 0x0002 Bytes, ...) -- CPU_ReadMem(64 bytes @ 0x00005080) -- Updating C cache (64 bytes @ 0x00005080) -- Read from C cache (2 bytes @ 0x000050BC) - Data: 09 00  returns 0x00 (0001ms, 0586ms total)
T2418 000:792 JLINK_ReadMem (0x000050C0, 0x0004 Bytes, ...) -- Read from C cache (4 bytes @ 0x000050C0) - Data: C8 00 02 01  returns 0x00 (0000ms, 0586ms total)
T2418 000:792 JLINK_ReadMem (0x000050E4, 0x0004 Bytes, ...) -- Read from C cache (4 bytes @ 0x000050E4) - Data: 00 00 00 00  returns 0x00 (0000ms, 0586ms total)
T2418 000:792 JLINK_ReadMem (0x000050E0, 0x0004 Bytes, ...) -- Read from C cache (4 bytes @ 0x000050E0) - Data: E8 03 00 00  returns 0x00 (0000ms, 0586ms total)
T2418 000:792 JLINK_ReadMem (0x00000000, 0x0004 Bytes, ...) -- CPU_ReadMem(64 bytes @ 0x00000000) -- Updating C cache (64 bytes @ 0x00000000) -- Read from C cache (4 bytes @ 0x00000000) - Data: 48 56 00 20  returns 0x00 (0002ms, 0588ms total)
T2418 000:794 JLINK_ReadMem (0x000050C4, 0x0004 Bytes, ...) -- Read from C cache (4 bytes @ 0x000050C4) - Data: 05 00 01 00  returns 0x00 (0000ms, 0588ms total)
T2418 000:800 JLINK_ReadMem (0x20000050, 0x0001 Bytes, ...) -- CPU_ReadMem(64 bytes @ 0x20000040) -- Updating C cache (64 bytes @ 0x20000040) -- Read from C cache (1 bytes @ 0x20000050) - Data: 02  returns 0x00 (0002ms, 0590ms total)
T1B40 002:027 JLINK_SetBPEx(Addr = 0x00002064, Type = 0xFFFFFFF2)  returns 0x00000001 (0000ms, 0590ms total)
T1B40 002:027 JLINK_SetBPEx(Addr = 0x00001A8A, Type = 0xFFFFFFF2)  returns 0x00000002 (0000ms, 0590ms total)
T1B40 002:027 JLINK_SetBPEx(Addr = 0x000020F8, Type = 0xFFFFFFF2)  returns 0x00000003 (0000ms, 0590ms total)
T1B40 002:027 JLINK_SetBPEx(Addr = 0x000011EA, Type = 0xFFFFFFF2)  returns 0x00000004 (0000ms, 0590ms total)
T1B40 002:027 JLINK_SetBPEx(Addr = 0x00001200, Type = 0xFFFFFFF2)  returns 0x00000005 (0000ms, 0590ms total)
T1B40 002:027 JLINK_Go() -- CPU_WriteMem(4 bytes @ 0xE0002000) -- CPU_WriteMem(4 bytes @ 0xE0002000) -- CPU_WriteMem(4 bytes @ 0xE0002000) -- CPU_WriteMem(4 bytes @ 0xE0002000) -- CPU_WriteMem(4 bytes @ 0xE0002000) -- CPU_ReadMem(4 bytes @ 0xE0001000) -- CPU_WriteMem(4 bytes @ 0xE0002008) -- CPU_WriteMem(4 bytes @ 0xE000200C) -- CPU_WriteMem(4 bytes @ 0xE0002010) -- CPU_WriteMem(4 bytes @ 0xE0002014) -- CPU_WriteMem(4 bytes @ 0xE0002018) -- CPU_WriteMem(4 bytes @ 0xE000201C)
 -- CPU_WriteMem(4 bytes @ 0xE0001004) (0008ms, 0598ms total)
T1B40 002:135 JLINK_IsHalted()  returns TRUE (0006ms, 0604ms total)
T1B40 002:141 JLINK_Halt()  returns 0x00 (0000ms, 0598ms total)
T1B40 002:141 JLINK_IsHalted()  returns TRUE (0000ms, 0598ms total)
T1B40 002:141 JLINK_IsHalted()  returns TRUE (0000ms, 0598ms total)
T1B40 002:141 JLINK_IsHalted()  returns TRUE (0000ms, 0598ms total)
T1B40 002:142 JLINK_ReadReg(R15 (PC))  returns 0x00002064 (0000ms, 0598ms total)
T1B40 002:142 JLINK_ReadReg(XPSR)  returns 0x01000000 (0000ms, 0598ms total)
T1B40 002:142 JLINK_ClrBPEx(BPHandle = 0x00000001)  returns 0x00 (0000ms, 0598ms total)
T1B40 002:142 JLINK_ClrBPEx(BPHandle = 0x00000002)  returns 0x00 (0000ms, 0598ms total)
T1B40 002:142 JLINK_ClrBPEx(BPHandle = 0x00000003)  returns 0x00 (0000ms, 0598ms total)
T1B40 002:142 JLINK_ClrBPEx(BPHandle = 0x00000004)  returns 0x00 (0000ms, 0598ms total)
T1B40 002:142 JLINK_ClrBPEx(BPHandle = 0x00000005)  returns 0x00 (0000ms, 0598ms total)
T1B40 002:142 JLINK_ReadMemU32(0xE000ED30, 0x0001 Items, ...) -- CPU_ReadMem(4 bytes @ 0xE000ED30) - Data: 02 00 00 00  returns 0x01 (0000ms, 0598ms total)
T1B40 002:142 JLINK_ReadMemU32(0xE0001028, 0x0001 Items, ...) -- CPU_ReadMem(4 bytes @ 0xE0001028) - Data: 00 00 00 00  returns 0x01 (0001ms, 0599ms total)
T1B40 002:143 JLINK_ReadMemU32(0xE0001038, 0x0001 Items, ...) -- CPU_ReadMem(4 bytes @ 0xE0001038) - Data: 00 02 00 00  returns 0x01 (0000ms, 0599ms total)
T1B40 002:143 JLINK_ReadMemU32(0xE0001048, 0x0001 Items, ...) -- CPU_ReadMem(4 bytes @ 0xE0001048) - Data: 00 00 00 00  returns 0x01 (0001ms, 0600ms total)
T1B40 002:144 JLINK_ReadMemU32(0xE0001058, 0x0001 Items, ...) -- CPU_ReadMem(4 bytes @ 0xE0001058) - Data: 00 00 00 00  returns 0x01 (0000ms, 0600ms total)
T1B40 002:144 JLINK_ReadReg(R0)  returns 0x00000000 (0000ms, 0600ms total)
T1B40 002:144 JLINK_ReadReg(R1)  returns 0x00000000 (0000ms, 0600ms total)
T1B40 002:144 JLINK_ReadReg(R2)  returns 0x00000000 (0000ms, 0600ms total)
T1B40 002:144 JLINK_ReadReg(R3)  returns 0x00000000 (0000ms, 0600ms total)
T1B40 002:144 JLINK_ReadReg(R4)  returns 0x00000000 (0000ms, 0600ms total)
T1B40 002:144 JLINK_ReadReg(R5)  returns 0x00000000 (0000ms, 0600ms total)
T1B40 002:144 JLINK_ReadReg(R6)  returns 0x00000000 (0000ms, 0600ms total)
T1B40 002:144 JLINK_ReadReg(R7)  returns 0x00000000 (0000ms, 0600ms total)
T1B40 002:144 JLINK_ReadReg(R8)  returns 0x00000000 (0000ms, 0600ms total)
T1B40 002:144 JLINK_ReadReg(R9)  returns 0x00000000 (0000ms, 0600ms total)
T1B40 002:144 JLINK_ReadReg(R10)  returns 0x00000000 (0000ms, 0600ms total)
T1B40 002:144 JLINK_ReadReg(R11)  returns 0x00000000 (0000ms, 0600ms total)
T1B40 002:144 JLINK_ReadReg(R12)  returns 0x00000000 (0000ms, 0600ms total)
T1B40 002:144 JLINK_ReadReg(R13 (SP))  returns 0x200010C8 (0000ms, 0600ms total)
T1B40 002:144 JLINK_ReadReg(R14)  returns 0x000035D9 (0000ms, 0600ms total)
T1B40 002:144 JLINK_ReadReg(R15 (PC))  returns 0x00002064 (0000ms, 0600ms total)
T1B40 002:144 JLINK_ReadReg(XPSR)  returns 0x01000000 (0000ms, 0600ms total)
T1B40 002:144 JLINK_ReadReg(MSP)  returns 0x20005628 (0000ms, 0600ms total)
T1B40 002:144 JLINK_ReadReg(PSP)  returns 0x200010C8 (0000ms, 0600ms total)
T1B40 002:144 JLINK_ReadReg(CFBP)  returns 0x02000000 (0000ms, 0600ms total)
T1B40 002:144 JLINK_ReadReg(FPSCR)  returns 0x03000000 (0011ms, 0611ms total)
T1B40 002:155 JLINK_ReadReg(FPS0)  returns 0x00000000 (0000ms, 0611ms total)
T1B40 002:155 JLINK_ReadReg(FPS1)  returns 0x00000000 (0000ms, 0611ms total)
T1B40 002:155 JLINK_ReadReg(FPS2)  returns 0x00000000 (0000ms, 0611ms total)
T1B40 002:155 JLINK_ReadReg(FPS3)  returns 0x00000000 (0000ms, 0611ms total)
T1B40 002:155 JLINK_ReadReg(FPS4)  returns 0x00000000 (0000ms, 0611ms total)
T1B40 002:155 JLINK_ReadReg(FPS5)  returns 0x00000000 (0000ms, 0611ms total)
T1B40 002:155 JLINK_ReadReg(FPS6)  returns 0x00000000 (0000ms, 0611ms total)
T1B40 002:155 JLINK_ReadReg(FPS7)  returns 0x00000000 (0000ms, 0611ms total)
T1B40 002:155 JLINK_ReadReg(FPS8)  returns 0x00000000 (0000ms, 0611ms total)
T1B40 002:155 JLINK_ReadReg(FPS9)  returns 0x00000000 (0000ms, 0611ms total)
T1B40 002:155 JLINK_ReadReg(FPS10)  returns 0x00000000 (0000ms, 0611ms total)
T1B40 002:155 JLINK_ReadReg(FPS11)  returns 0x00000000 (0000ms, 0611ms total)
T1B40 002:155 JLINK_ReadReg(FPS12)  returns 0x00000000 (0000ms, 0611ms total)
T1B40 002:155 JLINK_ReadReg(FPS13)  returns 0x00000000 (0000ms, 0611ms total)
T1B40 002:155 JLINK_ReadReg(FPS14)  returns 0x00000000 (0000ms, 0611ms total)
T1B40 002:155 JLINK_ReadReg(FPS15)  returns 0x00000000 (0000ms, 0611ms total)
T1B40 002:155 JLINK_ReadReg(FPS16)  returns 0x00000000 (0000ms, 0611ms total)
T1B40 002:155 JLINK_ReadReg(FPS17)  returns 0x00000000 (0000ms, 0611ms total)
T1B40 002:155 JLINK_ReadReg(FPS18)  returns 0x00000000 (0000ms, 0611ms total)
T1B40 002:155 JLINK_ReadReg(FPS19)  returns 0x00000000 (0000ms, 0611ms total)
T1B40 002:155 JLINK_ReadReg(FPS20)  returns 0x00000000 (0000ms, 0611ms total)
T1B40 002:155 JLINK_ReadReg(FPS21)  returns 0x00000000 (0000ms, 0611ms total)
T1B40 002:155 JLINK_ReadReg(FPS22)  returns 0x00000000 (0000ms, 0611ms total)
T1B40 002:155 JLINK_ReadReg(FPS23)  returns 0x00000000 (0000ms, 0611ms total)
T1B40 002:155 JLINK_ReadReg(FPS24)  returns 0x00000000 (0000ms, 0611ms total)
T1B40 002:155 JLINK_ReadReg(FPS25)  returns 0x00000000 (0000ms, 0611ms total)
T1B40 002:155 JLINK_ReadReg(FPS26)  returns 0x00000000 (0000ms, 0611ms total)
T1B40 002:155 JLINK_ReadReg(FPS27)  returns 0x00000000 (0000ms, 0611ms total)
T1B40 002:155 JLINK_ReadReg(FPS28)  returns 0x00000000 (0000ms, 0611ms total)
T1B40 002:155 JLINK_ReadReg(FPS29)  returns 0x00000000 (0000ms, 0611ms total)
T1B40 002:155 JLINK_ReadReg(FPS30)  returns 0x00000000 (0000ms, 0611ms total)
T1B40 002:155 JLINK_ReadReg(FPS31)  returns 0x00000000 (0000ms, 0611ms total)
T2418 002:155 JLINK_ReadMem (0x000050DC, 0x0004 Bytes, ...) -- CPU_ReadMem(64 bytes @ 0x000050C0) -- Updating C cache (64 bytes @ 0x000050C0) -- Read from C cache (4 bytes @ 0x000050DC) - Data: 52 00 04 00  returns 0x00 (0001ms, 0612ms total)
T2418 002:156 JLINK_ReadMem (0x000050BC, 0x0002 Bytes, ...) -- CPU_ReadMem(64 bytes @ 0x00005080) -- Updating C cache (64 bytes @ 0x00005080) -- Read from C cache (2 bytes @ 0x000050BC) - Data: 09 00  returns 0x00 (0002ms, 0614ms total)
T2418 002:158 JLINK_ReadMem (0x000050C0, 0x0004 Bytes, ...) -- Read from C cache (4 bytes @ 0x000050C0) - Data: C8 00 02 01  returns 0x00 (0000ms, 0614ms total)
T2418 002:158 JLINK_ReadMem (0x000050E4, 0x0004 Bytes, ...) -- Read from C cache (4 bytes @ 0x000050E4) - Data: 00 00 00 00  returns 0x00 (0000ms, 0614ms total)
T2418 002:158 JLINK_ReadMem (0x000050E0, 0x0004 Bytes, ...) -- Read from C cache (4 bytes @ 0x000050E0) - Data: E8 03 00 00  returns 0x00 (0000ms, 0614ms total)
T2418 002:158 JLINK_ReadMem (0x00000000, 0x0004 Bytes, ...) -- CPU_ReadMem(64 bytes @ 0x00000000) -- Updating C cache (64 bytes @ 0x00000000) -- Read from C cache (4 bytes @ 0x00000000) - Data: 48 56 00 20  returns 0x00 (0001ms, 0615ms total)
T2418 002:159 JLINK_ReadMem (0x000050C4, 0x0004 Bytes, ...) -- Read from C cache (4 bytes @ 0x000050C4) - Data: 05 00 01 00  returns 0x00 (0000ms, 0615ms total)
T2418 002:159 JLINK_ReadMem (0x20000058, 0x0004 Bytes, ...) -- CPU_ReadMem(64 bytes @ 0x20000040) -- Updating C cache (64 bytes @ 0x20000040) -- Read from C cache (4 bytes @ 0x20000058) - Data: 38 07 00 20  returns 0x00 (0002ms, 0617ms total)
T2418 002:161 JLINK_ReadMem (0x2000115C, 0x0024 Bytes, ...) -- CPU_ReadMem(64 bytes @ 0x20001140) -- Updating C cache (64 bytes @ 0x20001140) -- Read from C cache (36 bytes @ 0x2000115C) - Data: 04 07 00 20 38 07 00 20 00 00 00 00 00 00 00 00 ...  returns 0x00 (0002ms, 0619ms total)
T2418 002:163 JLINK_ReadMem (0x20001580, 0x0034 Bytes, ...) -- CPU_ReadMem(64 bytes @ 0x20001580) -- Updating C cache (64 bytes @ 0x20001580) -- Read from C cache (52 bytes @ 0x20001580) - Data: 00 01 00 FF 00 00 00 00 00 00 00 00 00 00 00 00 ...  returns 0x00 (0001ms, 0620ms total)
T2418 002:164 JLINK_ReadMem (0x20000704, 0x0034 Bytes, ...) -- CPU_ReadMem(64 bytes @ 0x20000700) -- Updating C cache (64 bytes @ 0x20000700) -- Read from C cache (52 bytes @ 0x20000704) - Data: 00 08 06 01 00 00 00 00 80 11 00 20 00 00 00 00 ...  returns 0x00 (0001ms, 0621ms total)
T2418 002:165 JLINK_ReadMem (0x20000738, 0x0034 Bytes, ...) -- CPU_ReadMem(64 bytes @ 0x20000740) -- Updating C cache (64 bytes @ 0x20000740) -- Read from C cache (52 bytes @ 0x20000738) - Data: 00 02 04 02 00 00 00 00 00 00 00 00 00 00 00 00 ...  returns 0x00 (0002ms, 0623ms total)
T2418 002:167 JLINK_ReadMem (0x200015CC, 0x0016 Bytes, ...) -- CPU_ReadMem(64 bytes @ 0x200015C0) -- Updating C cache (64 bytes @ 0x200015C0) -- Read from C cache (22 bytes @ 0x200015CC) - Data: 04 00 00 00 00 00 00 00 00 00 00 00 00 00 00 00 ...  returns 0x00 (0001ms, 0624ms total)
T2418 002:169 JLINK_ReadMem (0x200010C0, 0x0003 Bytes, ...) -- CPU_ReadMem(64 bytes @ 0x200010C0) -- Updating C cache (64 bytes @ 0x200010C0) -- Read from C cache (3 bytes @ 0x200010C0) - Data: 65 20 00  returns 0x00 (0001ms, 0625ms total)
T2418 002:174 JLINK_ReadMemU32(0xE0001004, 0x0001 Items, ...) -- CPU_ReadMem(4 bytes @ 0xE0001004) - Data: CC 3C 00 00  returns 0x01 (0001ms, 0626ms total)
T2418 002:175 JLINK_ReadMem (0x20000050, 0x0001 Bytes, ...) -- Read from C cache (1 bytes @ 0x20000050) - Data: 01  returns 0x00 (0000ms, 0626ms total)
T2418 002:181 JLINK_ReadMem (0x00002064, 0x003C Bytes, ...) -- CPU_ReadMem(128 bytes @ 0x00002040) -- Updating C cache (128 bytes @ 0x00002040) -- Read from C cache (60 bytes @ 0x00002064) - Data: 08 B5 01 F0 ED F9 00 BF 00 20 01 F0 27 F9 05 46 ...  returns 0x00 (0002ms, 0628ms total)
T1B40 005:567 JLINK_SetBPEx(Addr = 0x00001A8A, Type = 0xFFFFFFF2)  returns 0x00000006 (0000ms, 0628ms total)
T1B40 005:567 JLINK_SetBPEx(Addr = 0x000020F8, Type = 0xFFFFFFF2)  returns 0x00000007 (0000ms, 0628ms total)
T1B40 005:567 JLINK_SetBPEx(Addr = 0x000011EA, Type = 0xFFFFFFF2)  returns 0x00000008 (0000ms, 0628ms total)
T1B40 005:567 JLINK_SetBPEx(Addr = 0x00001200, Type = 0xFFFFFFF2)  returns 0x00000009 (0000ms, 0628ms total)
T1B40 005:567 JLINK_Go() -- CPU_WriteMem(4 bytes @ 0xE0002000) -- CPU_WriteMem(4 bytes @ 0xE0002000) -- CPU_WriteMem(4 bytes @ 0xE0002000) -- CPU_WriteMem(4 bytes @ 0xE0002000) -- CPU_ReadMem(4 bytes @ 0xE0001000) -- CPU_WriteMem(4 bytes @ 0xE0002008) -- CPU_WriteMem(4 bytes @ 0xE000200C) -- CPU_WriteMem(4 bytes @ 0xE0002010) -- CPU_WriteMem(4 bytes @ 0xE0002014) -- CPU_WriteMem(4 bytes @ 0xE0002018) (0006ms, 0634ms total)
T1B40 005:674 JLINK_IsHalted()  returns TRUE (0006ms, 0640ms total)
T1B40 005:680 JLINK_Halt()  returns 0x00 (0000ms, 0634ms total)
T1B40 005:680 JLINK_IsHalted()  returns TRUE (0000ms, 0634ms total)
T1B40 005:680 JLINK_IsHalted()  returns TRUE (0000ms, 0634ms total)
T1B40 005:680 JLINK_IsHalted()  returns TRUE (0000ms, 0634ms total)
T1B40 005:680 JLINK_ReadReg(R15 (PC))  returns 0x00001A8A (0000ms, 0634ms total)
T1B40 005:680 JLINK_ReadReg(XPSR)  returns 0x41000000 (0000ms, 0634ms total)
T1B40 005:680 JLINK_ClrBPEx(BPHandle = 0x00000006)  returns 0x00 (0000ms, 0634ms total)
T1B40 005:680 JLINK_ClrBPEx(BPHandle = 0x00000007)  returns 0x00 (0000ms, 0634ms total)
T1B40 005:680 JLINK_ClrBPEx(BPHandle = 0x00000008)  returns 0x00 (0000ms, 0634ms total)
T1B40 005:680 JLINK_ClrBPEx(BPHandle = 0x00000009)  returns 0x00 (0000ms, 0634ms total)
T1B40 005:680 JLINK_ReadMemU32(0xE000ED30, 0x0001 Items, ...) -- CPU_ReadMem(4 bytes @ 0xE000ED30) - Data: 02 00 00 00  returns 0x01 (0001ms, 0635ms total)
T1B40 005:681 JLINK_ReadMemU32(0xE0001028, 0x0001 Items, ...) -- CPU_ReadMem(4 bytes @ 0xE0001028) - Data: 00 00 00 00  returns 0x01 (0001ms, 0636ms total)
T1B40 005:682 JLINK_ReadMemU32(0xE0001038, 0x0001 Items, ...) -- CPU_ReadMem(4 bytes @ 0xE0001038) - Data: 00 02 00 00  returns 0x01 (0000ms, 0636ms total)
T1B40 005:682 JLINK_ReadMemU32(0xE0001048, 0x0001 Items, ...) -- CPU_ReadMem(4 bytes @ 0xE0001048) - Data: 00 00 00 00  returns 0x01 (0001ms, 0637ms total)
T1B40 005:683 JLINK_ReadMemU32(0xE0001058, 0x0001 Items, ...) -- CPU_ReadMem(4 bytes @ 0xE0001058) - Data: 00 00 00 00  returns 0x01 (0000ms, 0637ms total)
T1B40 005:683 JLINK_ReadReg(R0)  returns 0x00000000 (0000ms, 0637ms total)
T1B40 005:683 JLINK_ReadReg(R1)  returns 0xFFFFFFFF (0000ms, 0637ms total)
T1B40 005:683 JLINK_ReadReg(R2)  returns 0x00000000 (0000ms, 0637ms total)
T1B40 005:683 JLINK_ReadReg(R3)  returns 0x00000007 (0000ms, 0637ms total)
T1B40 005:683 JLINK_ReadReg(R4)  returns 0x200000CC (0000ms, 0637ms total)
T1B40 005:683 JLINK_ReadReg(R5)  returns 0x200000CC (0000ms, 0637ms total)
T1B40 005:683 JLINK_ReadReg(R6)  returns 0x00000000 (0000ms, 0637ms total)
T1B40 005:683 JLINK_ReadReg(R7)  returns 0x00000000 (0000ms, 0637ms total)
T1B40 005:683 JLINK_ReadReg(R8)  returns 0x00000000 (0000ms, 0637ms total)
T1B40 005:683 JLINK_ReadReg(R9)  returns 0x00000000 (0000ms, 0637ms total)
T1B40 005:683 JLINK_ReadReg(R10)  returns 0x00000000 (0000ms, 0637ms total)
T1B40 005:683 JLINK_ReadReg(R11)  returns 0x00000000 (0000ms, 0637ms total)
T1B40 005:683 JLINK_ReadReg(R12)  returns 0x00004B7D (0001ms, 0638ms total)
T1B40 005:684 JLINK_ReadReg(R13 (SP))  returns 0x20000A60 (0000ms, 0638ms total)
T1B40 005:684 JLINK_ReadReg(R14)  returns 0x00001A87 (0000ms, 0638ms total)
T1B40 005:684 JLINK_ReadReg(R15 (PC))  returns 0x00001A8A (0000ms, 0638ms total)
T1B40 005:684 JLINK_ReadReg(XPSR)  returns 0x41000000 (0000ms, 0638ms total)
T1B40 005:684 JLINK_ReadReg(MSP)  returns 0x20005628 (0000ms, 0638ms total)
T1B40 005:684 JLINK_ReadReg(PSP)  returns 0x20000A60 (0000ms, 0638ms total)
T1B40 005:684 JLINK_ReadReg(CFBP)  returns 0x02000000 (0000ms, 0638ms total)
T1B40 005:684 JLINK_ReadReg(FPSCR)  returns 0x03000000 (0010ms, 0648ms total)
T1B40 005:694 JLINK_ReadReg(FPS0)  returns 0x00000000 (0000ms, 0648ms total)
T1B40 005:694 JLINK_ReadReg(FPS1)  returns 0x00000000 (0000ms, 0648ms total)
T1B40 005:694 JLINK_ReadReg(FPS2)  returns 0x00000000 (0000ms, 0648ms total)
T1B40 005:694 JLINK_ReadReg(FPS3)  returns 0x00000000 (0000ms, 0648ms total)
T1B40 005:694 JLINK_ReadReg(FPS4)  returns 0x00000000 (0000ms, 0648ms total)
T1B40 005:694 JLINK_ReadReg(FPS5)  returns 0x00000000 (0000ms, 0648ms total)
T1B40 005:694 JLINK_ReadReg(FPS6)  returns 0x00000000 (0000ms, 0648ms total)
T1B40 005:694 JLINK_ReadReg(FPS7)  returns 0x00000000 (0000ms, 0648ms total)
T1B40 005:694 JLINK_ReadReg(FPS8)  returns 0x00000000 (0000ms, 0648ms total)
T1B40 005:694 JLINK_ReadReg(FPS9)  returns 0x00000000 (0000ms, 0648ms total)
T1B40 005:694 JLINK_ReadReg(FPS10)  returns 0x00000000 (0000ms, 0648ms total)
T1B40 005:694 JLINK_ReadReg(FPS11)  returns 0x00000000 (0000ms, 0648ms total)
T1B40 005:694 JLINK_ReadReg(FPS12)  returns 0x00000000 (0000ms, 0648ms total)
T1B40 005:694 JLINK_ReadReg(FPS13)  returns 0x00000000 (0000ms, 0648ms total)
T1B40 005:694 JLINK_ReadReg(FPS14)  returns 0x00000000 (0000ms, 0648ms total)
T1B40 005:694 JLINK_ReadReg(FPS15)  returns 0x00000000 (0000ms, 0648ms total)
T1B40 005:694 JLINK_ReadReg(FPS16)  returns 0x00000000 (0000ms, 0648ms total)
T1B40 005:694 JLINK_ReadReg(FPS17)  returns 0x00000000 (0000ms, 0648ms total)
T1B40 005:694 JLINK_ReadReg(FPS18)  returns 0x00000000 (0000ms, 0648ms total)
T1B40 005:694 JLINK_ReadReg(FPS19)  returns 0x00000000 (0000ms, 0648ms total)
T1B40 005:694 JLINK_ReadReg(FPS20)  returns 0x00000000 (0000ms, 0648ms total)
T1B40 005:694 JLINK_ReadReg(FPS21)  returns 0x00000000 (0000ms, 0648ms total)
T1B40 005:694 JLINK_ReadReg(FPS22)  returns 0x00000000 (0000ms, 0648ms total)
T1B40 005:694 JLINK_ReadReg(FPS23)  returns 0x00000000 (0000ms, 0648ms total)
T1B40 005:694 JLINK_ReadReg(FPS24)  returns 0x00000000 (0000ms, 0648ms total)
T1B40 005:694 JLINK_ReadReg(FPS25)  returns 0x00000000 (0000ms, 0648ms total)
T1B40 005:694 JLINK_ReadReg(FPS26)  returns 0x00000000 (0000ms, 0648ms total)
T1B40 005:694 JLINK_ReadReg(FPS27)  returns 0x00000000 (0000ms, 0648ms total)
T1B40 005:694 JLINK_ReadReg(FPS28)  returns 0x00000000 (0000ms, 0648ms total)
T1B40 005:694 JLINK_ReadReg(FPS29)  returns 0x00000000 (0000ms, 0648ms total)
T1B40 005:694 JLINK_ReadReg(FPS30)  returns 0x00000000 (0000ms, 0648ms total)
T1B40 005:694 JLINK_ReadReg(FPS31)  returns 0x00000000 (0000ms, 0648ms total)
T2418 005:694 JLINK_ReadMem (0x20000058, 0x0004 Bytes, ...) -- CPU_ReadMem(64 bytes @ 0x20000040) -- Updating C cache (64 bytes @ 0x20000040) -- Read from C cache (4 bytes @ 0x20000058) - Data: 6C 07 00 20  returns 0x00 (0002ms, 0650ms total)
T2418 005:696 JLINK_ReadMem (0x2000115C, 0x0024 Bytes, ...) -- CPU_ReadMem(64 bytes @ 0x20001140) -- Updating C cache (64 bytes @ 0x20001140) -- Read from C cache (36 bytes @ 0x2000115C) - Data: 04 07 00 20 38 07 00 20 6C 07 00 20 A0 07 00 20 ...  returns 0x00 (0001ms, 0651ms total)
T2418 005:697 JLINK_ReadMem (0x20001580, 0x0034 Bytes, ...) -- CPU_ReadMem(64 bytes @ 0x20001580) -- Updating C cache (64 bytes @ 0x20001580) -- Read from C cache (52 bytes @ 0x20001580) - Data: 00 01 00 FF 00 00 00 00 00 00 00 00 00 00 00 00 ...  returns 0x00 (0001ms, 0652ms total)
T2418 005:698 JLINK_ReadMem (0x20000704, 0x0034 Bytes, ...) -- CPU_ReadMem(64 bytes @ 0x20000700) -- Updating C cache (64 bytes @ 0x20000700) -- Read from C cache (52 bytes @ 0x20000704) - Data: 00 08 06 01 00 00 00 00 80 11 00 20 00 00 00 00 ...  returns 0x00 (0002ms, 0654ms total)
T2418 005:700 JLINK_ReadMem (0x20000738, 0x0034 Bytes, ...) -- CPU_ReadMem(64 bytes @ 0x20000740) -- Updating C cache (64 bytes @ 0x20000740) -- Read from C cache (52 bytes @ 0x20000738) - Data: 00 03 04 02 00 00 00 00 00 00 00 00 00 00 00 00 ...  returns 0x00 (0001ms, 0655ms total)
T2418 005:701 JLINK_ReadMem (0x2000076C, 0x0034 Bytes, ...) -- CPU_ReadMem(64 bytes @ 0x20000780) -- Updating C cache (64 bytes @ 0x20000780) -- Read from C cache (52 bytes @ 0x2000076C) - Data: 00 02 04 03 00 00 00 00 00 00 00 00 00 00 00 00 ...  returns 0x00 (0001ms, 0656ms total)
T2418 005:702 JLINK_ReadMem (0x200007A0, 0x0034 Bytes, ...) -- CPU_ReadMem(64 bytes @ 0x200007C0) -- Updating C cache (64 bytes @ 0x200007C0) -- Read from C cache (52 bytes @ 0x200007A0) - Data: 00 01 04 04 80 15 00 20 00 00 00 00 00 00 00 00 ...  returns 0x00 (0002ms, 0658ms total)
T2418 005:704 JLINK_ReadMem (0x200015CC, 0x0016 Bytes, ...) -- CPU_ReadMem(64 bytes @ 0x200015C0) -- Updating C cache (64 bytes @ 0x200015C0) -- Read from C cache (22 bytes @ 0x200015CC) - Data: 04 00 00 00 00 00 00 00 00 00 00 00 38 07 00 20 ...  returns 0x00 (0001ms, 0659ms total)
T2418 005:707 JLINK_ReadMem (0x20000A74, 0x0004 Bytes, ...) -- CPU_ReadMem(64 bytes @ 0x20000A40) -- Updating C cache (64 bytes @ 0x20000A40) -- Read from C cache (4 bytes @ 0x20000A74) - Data: D9 35 00 00  returns 0x00 (0001ms, 0660ms total)
T2418 005:708 JLINK_ReadMem (0x00000000, 0x0004 Bytes, ...) -- CPU_ReadMem(64 bytes @ 0x00000000) -- Updating C cache (64 bytes @ 0x00000000) -- Read from C cache (4 bytes @ 0x00000000) - Data: 48 56 00 20  returns 0x00 (0001ms, 0661ms total)
T2418 005:709 JLINK_ReadMem (0x20001080, 0x0040 Bytes, ...) -- CPU_ReadMem(64 bytes @ 0x20001080) -- Updating C cache (64 bytes @ 0x20001080) -- Read from C cache (64 bytes @ 0x20001080) - Data: CC 00 00 20 00 00 00 00 00 00 00 00 00 00 00 00 ...  returns 0x00 (0002ms, 0663ms total)
T2418 005:711 JLINK_ReadMem (0x200010C4, 0x0004 Bytes, ...) -- CPU_ReadMem(64 bytes @ 0x200010C0) -- Updating C cache (64 bytes @ 0x200010C0) -- Read from C cache (4 bytes @ 0x200010C4) - Data: D9 35 00 00  returns 0x00 (0001ms, 0664ms total)
T2418 005:712 JLINK_ReadMem (0x200010C0, 0x0003 Bytes, ...) -- Read from C cache (3 bytes @ 0x200010C0) - Data: 0F F0 FF  returns 0x00 (0000ms, 0664ms total)
T2418 005:717 JLINK_ReadMemU32(0xE0001004, 0x0001 Items, ...) -- CPU_ReadMem(4 bytes @ 0xE0001004) - Data: 40 3B 04 00  returns 0x01 (0000ms, 0664ms total)
T2418 005:717 JLINK_ReadMem (0x000050BC, 0x0002 Bytes, ...) -- CPU_ReadMem(64 bytes @ 0x00005080) -- Updating C cache (64 bytes @ 0x00005080) -- Read from C cache (2 bytes @ 0x000050BC) - Data: 09 00  returns 0x00 (0002ms, 0666ms total)
T2418 005:719 JLINK_ReadMem (0x000050C0, 0x0004 Bytes, ...) -- CPU_ReadMem(64 bytes @ 0x000050C0) -- Updating C cache (64 bytes @ 0x000050C0) -- Read from C cache (4 bytes @ 0x000050C0) - Data: C8 00 02 01  returns 0x00 (0001ms, 0667ms total)
T2418 005:720 JLINK_ReadMem (0x000050E4, 0x0004 Bytes, ...) -- Read from C cache (4 bytes @ 0x000050E4) - Data: 00 00 00 00  returns 0x00 (0000ms, 0667ms total)
T2418 005:720 JLINK_ReadMem (0x000050E0, 0x0004 Bytes, ...) -- Read from C cache (4 bytes @ 0x000050E0) - Data: E8 03 00 00  returns 0x00 (0000ms, 0667ms total)
T2418 005:720 JLINK_ReadMem (0x000050C4, 0x0004 Bytes, ...) -- Read from C cache (4 bytes @ 0x000050C4) - Data: 05 00 01 00  returns 0x00 (0000ms, 0667ms total)
T2418 005:720 JLINK_ReadMem (0x20000050, 0x0001 Bytes, ...) -- Read from C cache (1 bytes @ 0x20000050) - Data: 01  returns 0x00 (0000ms, 0667ms total)
T2418 005:741 JLINK_ReadMem (0x00001A8A, 0x0002 Bytes, ...) -- CPU_ReadMem(64 bytes @ 0x00001A80) -- Updating C cache (64 bytes @ 0x00001A80) -- Read from C cache (2 bytes @ 0x00001A8A) - Data: 61 78  returns 0x00 (0001ms, 0668ms total)
T2418 005:742 JLINK_ReadMem (0x00001A8C, 0x003C Bytes, ...) -- CPU_ReadMem(64 bytes @ 0x00001AC0) -- Updating C cache (64 bytes @ 0x00001AC0) -- Read from C cache (60 bytes @ 0x00001A8C) - Data: 14 4A 52 F8 21 00 29 46 01 F0 5B FD 21 46 03 48 ...  returns 0x00 (0002ms, 0670ms total)
T1B40 013:821 JLINK_Step() -- Read from C cache (2 bytes @ 0x00001A8A) -- CPU_ReadMem(4 bytes @ 0xE000ED18) -- CPU_WriteMem(4 bytes @ 0xE000ED18) -- CPU_ReadMem(4 bytes @ 0xE000ED18) -- CPU_WriteMem(4 bytes @ 0xE000ED18) -- CPU_ReadMem(64 bytes @ 0x200000C0) -- Updating C cache (64 bytes @ 0x200000C0) -- Read from C cache (1 bytes @ 0x200000CD) -- Simulated  returns 0x00 (0004ms, 0674ms total)
T1B40 013:825 JLINK_ReadReg(R15 (PC))  returns 0x00001A8C (0000ms, 0674ms total)
T1B40 013:825 JLINK_ReadReg(XPSR)  returns 0x41000000 (0000ms, 0674ms total)
T1B40 013:825 JLINK_SetBPEx(Addr = 0x00001A8A, Type = 0xFFFFFFF2)  returns 0x0000000A (0000ms, 0674ms total)
T1B40 013:825 JLINK_SetBPEx(Addr = 0x000020F8, Type = 0xFFFFFFF2)  returns 0x0000000B (0000ms, 0674ms total)
T1B40 013:825 JLINK_SetBPEx(Addr = 0x000011EA, Type = 0xFFFFFFF2)  returns 0x0000000C (0000ms, 0674ms total)
T1B40 013:825 JLINK_SetBPEx(Addr = 0x00001200, Type = 0xFFFFFFF2)  returns 0x0000000D (0000ms, 0674ms total)
T1B40 013:825 JLINK_Go() -- CPU_WriteMem(4 bytes @ 0xE0002000) -- CPU_WriteMem(4 bytes @ 0xE0002000) -- CPU_WriteMem(4 bytes @ 0xE0002000) -- CPU_WriteMem(4 bytes @ 0xE0002000) -- CPU_ReadMem(4 bytes @ 0xE0001000) -- CPU_WriteMem(4 bytes @ 0xE0001004) (0005ms, 0679ms total)
T1B40 013:930 JLINK_IsHalted()  returns TRUE (0006ms, 0685ms total)
T1B40 013:937 JLINK_Halt()  returns 0x00 (0000ms, 0679ms total)
T1B40 013:937 JLINK_IsHalted()  returns TRUE (0000ms, 0679ms total)
T1B40 013:937 JLINK_IsHalted()  returns TRUE (0000ms, 0679ms total)
T1B40 013:937 JLINK_IsHalted()  returns TRUE (0000ms, 0679ms total)
T1B40 013:937 JLINK_ReadReg(R15 (PC))  returns 0x000020F8 (0000ms, 0679ms total)
T1B40 013:937 JLINK_ReadReg(XPSR)  returns 0x01000000 (0000ms, 0679ms total)
T1B40 013:937 JLINK_ClrBPEx(BPHandle = 0x0000000A)  returns 0x00 (0000ms, 0679ms total)
T1B40 013:937 JLINK_ClrBPEx(BPHandle = 0x0000000B)  returns 0x00 (0000ms, 0679ms total)
T1B40 013:937 JLINK_ClrBPEx(BPHandle = 0x0000000C)  returns 0x00 (0000ms, 0679ms total)
T1B40 013:937 JLINK_ClrBPEx(BPHandle = 0x0000000D)  returns 0x00 (0000ms, 0679ms total)
T1B40 013:937 JLINK_ReadMemU32(0xE000ED30, 0x0001 Items, ...) -- CPU_ReadMem(4 bytes @ 0xE000ED30) - Data: 02 00 00 00  returns 0x01 (0000ms, 0679ms total)
T1B40 013:937 JLINK_ReadMemU32(0xE0001028, 0x0001 Items, ...) -- CPU_ReadMem(4 bytes @ 0xE0001028) - Data: 00 00 00 00  returns 0x01 (0001ms, 0680ms total)
T1B40 013:938 JLINK_ReadMemU32(0xE0001038, 0x0001 Items, ...) -- CPU_ReadMem(4 bytes @ 0xE0001038) - Data: 00 02 00 00  returns 0x01 (0000ms, 0680ms total)
T1B40 013:938 JLINK_ReadMemU32(0xE0001048, 0x0001 Items, ...) -- CPU_ReadMem(4 bytes @ 0xE0001048) - Data: 00 00 00 00  returns 0x01 (0001ms, 0681ms total)
T1B40 013:939 JLINK_ReadMemU32(0xE0001058, 0x0001 Items, ...) -- CPU_ReadMem(4 bytes @ 0xE0001058) - Data: 00 00 00 00  returns 0x01 (0000ms, 0681ms total)
T1B40 013:939 JLINK_ReadReg(R0)  returns 0x00000040 (0000ms, 0681ms total)
T1B40 013:939 JLINK_ReadReg(R1)  returns 0x20000058 (0000ms, 0681ms total)
T1B40 013:939 JLINK_ReadReg(R2)  returns 0x00000000 (0000ms, 0681ms total)
T1B40 013:939 JLINK_ReadReg(R3)  returns 0x00000000 (0000ms, 0681ms total)
T1B40 013:939 JLINK_ReadReg(R4)  returns 0x200000CC (0000ms, 0681ms total)
T1B40 013:939 JLINK_ReadReg(R5)  returns 0x00000000 (0000ms, 0681ms total)
T1B40 013:939 JLINK_ReadReg(R6)  returns 0x00000000 (0000ms, 0681ms total)
T1B40 013:939 JLINK_ReadReg(R7)  returns 0x00000000 (0000ms, 0681ms total)
T1B40 013:939 JLINK_ReadReg(R8)  returns 0x00000000 (0000ms, 0681ms total)
T1B40 013:939 JLINK_ReadReg(R9)  returns 0x00000000 (0000ms, 0681ms total)
T1B40 013:939 JLINK_ReadReg(R10)  returns 0x00000000 (0000ms, 0681ms total)
T1B40 013:939 JLINK_ReadReg(R11)  returns 0x00000000 (0000ms, 0681ms total)
T1B40 013:939 JLINK_ReadReg(R12)  returns 0x000048AF (0000ms, 0681ms total)
T1B40 013:939 JLINK_ReadReg(R13 (SP))  returns 0x200010C0 (0000ms, 0681ms total)
T1B40 013:939 JLINK_ReadReg(R14)  returns 0x000020F9 (0000ms, 0681ms total)
T1B40 013:939 JLINK_ReadReg(R15 (PC))  returns 0x000020F8 (0000ms, 0681ms total)
T1B40 013:939 JLINK_ReadReg(XPSR)  returns 0x01000000 (0000ms, 0681ms total)
T1B40 013:939 JLINK_ReadReg(MSP)  returns 0x20005628 (0000ms, 0681ms total)
T1B40 013:939 JLINK_ReadReg(PSP)  returns 0x200010C0 (0000ms, 0681ms total)
T1B40 013:939 JLINK_ReadReg(CFBP)  returns 0x02000000 (0000ms, 0681ms total)
T1B40 013:939 JLINK_ReadReg(FPSCR)  returns 0x03000000 (0011ms, 0692ms total)
T1B40 013:950 JLINK_ReadReg(FPS0)  returns 0x00000000 (0000ms, 0692ms total)
T1B40 013:950 JLINK_ReadReg(FPS1)  returns 0x00000000 (0000ms, 0692ms total)
T1B40 013:950 JLINK_ReadReg(FPS2)  returns 0x00000000 (0000ms, 0692ms total)
T1B40 013:950 JLINK_ReadReg(FPS3)  returns 0x00000000 (0000ms, 0692ms total)
T1B40 013:950 JLINK_ReadReg(FPS4)  returns 0x00000000 (0000ms, 0692ms total)
T1B40 013:950 JLINK_ReadReg(FPS5)  returns 0x00000000 (0000ms, 0692ms total)
T1B40 013:950 JLINK_ReadReg(FPS6)  returns 0x00000000 (0000ms, 0692ms total)
T1B40 013:950 JLINK_ReadReg(FPS7)  returns 0x00000000 (0000ms, 0692ms total)
T1B40 013:950 JLINK_ReadReg(FPS8)  returns 0x00000000 (0000ms, 0692ms total)
T1B40 013:950 JLINK_ReadReg(FPS9)  returns 0x00000000 (0000ms, 0692ms total)
T1B40 013:950 JLINK_ReadReg(FPS10)  returns 0x00000000 (0000ms, 0692ms total)
T1B40 013:950 JLINK_ReadReg(FPS11)  returns 0x00000000 (0000ms, 0692ms total)
T1B40 013:950 JLINK_ReadReg(FPS12)  returns 0x00000000 (0000ms, 0692ms total)
T1B40 013:950 JLINK_ReadReg(FPS13)  returns 0x00000000 (0000ms, 0692ms total)
T1B40 013:950 JLINK_ReadReg(FPS14)  returns 0x00000000 (0000ms, 0692ms total)
T1B40 013:950 JLINK_ReadReg(FPS15)  returns 0x00000000 (0000ms, 0692ms total)
T1B40 013:950 JLINK_ReadReg(FPS16)  returns 0x00000000 (0000ms, 0692ms total)
T1B40 013:950 JLINK_ReadReg(FPS17)  returns 0x00000000 (0000ms, 0692ms total)
T1B40 013:950 JLINK_ReadReg(FPS18)  returns 0x00000000 (0000ms, 0692ms total)
T1B40 013:950 JLINK_ReadReg(FPS19)  returns 0x00000000 (0000ms, 0692ms total)
T1B40 013:950 JLINK_ReadReg(FPS20)  returns 0x00000000 (0000ms, 0692ms total)
T1B40 013:950 JLINK_ReadReg(FPS21)  returns 0x00000000 (0000ms, 0692ms total)
T1B40 013:950 JLINK_ReadReg(FPS22)  returns 0x00000000 (0000ms, 0692ms total)
T1B40 013:950 JLINK_ReadReg(FPS23)  returns 0x00000000 (0000ms, 0692ms total)
T1B40 013:950 JLINK_ReadReg(FPS24)  returns 0x00000000 (0000ms, 0692ms total)
T1B40 013:950 JLINK_ReadReg(FPS25)  returns 0x00000000 (0000ms, 0692ms total)
T1B40 013:950 JLINK_ReadReg(FPS26)  returns 0x00000000 (0000ms, 0692ms total)
T1B40 013:950 JLINK_ReadReg(FPS27)  returns 0x00000000 (0000ms, 0692ms total)
T1B40 013:950 JLINK_ReadReg(FPS28)  returns 0x00000000 (0000ms, 0692ms total)
T1B40 013:950 JLINK_ReadReg(FPS29)  returns 0x00000000 (0000ms, 0692ms total)
T1B40 013:950 JLINK_ReadReg(FPS30)  returns 0x00000000 (0000ms, 0692ms total)
T1B40 013:950 JLINK_ReadReg(FPS31)  returns 0x00000000 (0000ms, 0692ms total)
T2418 013:950 JLINK_ReadMem (0x20000058, 0x0004 Bytes, ...) -- CPU_ReadMem(64 bytes @ 0x20000040) -- Updating C cache (64 bytes @ 0x20000040) -- Read from C cache (4 bytes @ 0x20000058) - Data: 38 07 00 20  returns 0x00 (0001ms, 0693ms total)
T2418 013:951 JLINK_ReadMem (0x2000115C, 0x0024 Bytes, ...) -- CPU_ReadMem(64 bytes @ 0x20001140) -- Updating C cache (64 bytes @ 0x20001140) -- Read from C cache (36 bytes @ 0x2000115C) - Data: 04 07 00 20 38 07 00 20 6C 07 00 20 A0 07 00 20 ...  returns 0x00 (0002ms, 0695ms total)
T2418 013:953 JLINK_ReadMem (0x20001580, 0x0034 Bytes, ...) -- CPU_ReadMem(64 bytes @ 0x20001580) -- Updating C cache (64 bytes @ 0x20001580) -- Read from C cache (52 bytes @ 0x20001580) - Data: 00 01 00 FF 00 00 00 00 00 00 00 00 00 00 00 00 ...  returns 0x00 (0001ms, 0696ms total)
T2418 013:954 JLINK_ReadMem (0x20000704, 0x0034 Bytes, ...) -- CPU_ReadMem(64 bytes @ 0x20000700) -- Updating C cache (64 bytes @ 0x20000700) -- Read from C cache (52 bytes @ 0x20000704) - Data: 00 08 06 01 00 00 00 00 80 11 00 20 00 00 00 00 ...  returns 0x00 (0001ms, 0697ms total)
T2418 013:955 JLINK_ReadMem (0x20000738, 0x0034 Bytes, ...) -- CPU_ReadMem(64 bytes @ 0x20000740) -- Updating C cache (64 bytes @ 0x20000740) -- Read from C cache (52 bytes @ 0x20000738) - Data: 00 02 04 02 00 00 00 00 00 00 00 00 00 00 00 00 ...  returns 0x00 (0002ms, 0699ms total)
T2418 013:957 JLINK_ReadMem (0x2000076C, 0x0034 Bytes, ...) -- CPU_ReadMem(64 bytes @ 0x20000780) -- Updating C cache (64 bytes @ 0x20000780) -- Read from C cache (52 bytes @ 0x2000076C) - Data: 00 08 04 03 00 00 00 00 88 00 00 20 00 00 00 00 ...  returns 0x00 (0001ms, 0700ms total)
T2418 013:958 JLINK_ReadMem (0x200007A0, 0x0034 Bytes, ...) -- CPU_ReadMem(64 bytes @ 0x200007C0) -- Updating C cache (64 bytes @ 0x200007C0) -- Read from C cache (52 bytes @ 0x200007A0) - Data: 00 06 04 04 00 00 00 00 00 00 00 00 00 00 00 00 ...  returns 0x00 (0001ms, 0701ms total)
T2418 013:959 JLINK_ReadMem (0x200015CC, 0x0016 Bytes, ...) -- CPU_ReadMem(64 bytes @ 0x200015C0) -- Updating C cache (64 bytes @ 0x200015C0) -- Read from C cache (22 bytes @ 0x200015CC) - Data: 04 00 00 00 00 00 00 00 00 00 00 00 A0 07 00 20 ...  returns 0x00 (0002ms, 0703ms total)
T2418 013:966 JLINK_ReadMem (0x20000A18, 0x0040 Bytes, ...) -- CPU_ReadMem(128 bytes @ 0x20000A00) -- Updating C cache (128 bytes @ 0x20000A00) -- Read from C cache (64 bytes @ 0x20000A18) - Data: CC 00 00 20 CC 00 00 20 00 00 00 00 00 00 00 00 ...  returns 0x00 (0003ms, 0706ms total)
T2418 013:969 JLINK_ReadMem (0x20000A5C, 0x0004 Bytes, ...) -- Read from C cache (4 bytes @ 0x20000A5C) - Data: 59 1A 00 00  returns 0x00 (0000ms, 0706ms total)
T2418 013:969 JLINK_ReadMem (0x20000A58, 0x0004 Bytes, ...) -- Read from C cache (4 bytes @ 0x20000A58) - Data: CC 00 00 20  returns 0x00 (0000ms, 0706ms total)
T2418 013:969 JLINK_ReadMem (0x20000A74, 0x0004 Bytes, ...) -- Read from C cache (4 bytes @ 0x20000A74) - Data: D9 35 00 00  returns 0x00 (0000ms, 0706ms total)
T2418 013:969 JLINK_ReadMem (0x00000000, 0x0004 Bytes, ...) -- CPU_ReadMem(64 bytes @ 0x00000000) -- Updating C cache (64 bytes @ 0x00000000) -- Read from C cache (4 bytes @ 0x00000000) - Data: 48 56 00 20  returns 0x00 (0001ms, 0707ms total)
T2418 013:970 JLINK_ReadMem (0x200010C4, 0x0004 Bytes, ...) -- CPU_ReadMem(64 bytes @ 0x200010C0) -- Updating C cache (64 bytes @ 0x200010C0) -- Read from C cache (4 bytes @ 0x200010C4) - Data: D9 35 00 00  returns 0x00 (0002ms, 0709ms total)
T2418 013:972 JLINK_ReadMem (0x200010C0, 0x0003 Bytes, ...) -- Read from C cache (3 bytes @ 0x200010C0) - Data: 0F F0 FF  returns 0x00 (0000ms, 0709ms total)
T2418 013:978 JLINK_ReadMemU32(0xE0001004, 0x0001 Items, ...) -- CPU_ReadMem(4 bytes @ 0xE0001004) - Data: 43 5E 0D 00  returns 0x01 (0001ms, 0710ms total)
T2418 013:979 JLINK_ReadMem (0x000050BC, 0x0002 Bytes, ...) -- CPU_ReadMem(64 bytes @ 0x00005080) -- Updating C cache (64 bytes @ 0x00005080) -- Read from C cache (2 bytes @ 0x000050BC) - Data: 09 00  returns 0x00 (0002ms, 0712ms total)
T2418 013:981 JLINK_ReadMem (0x000050C0, 0x0004 Bytes, ...) -- CPU_ReadMem(64 bytes @ 0x000050C0) -- Updating C cache (64 bytes @ 0x000050C0) -- Read from C cache (4 bytes @ 0x000050C0) - Data: C8 00 02 01  returns 0x00 (0001ms, 0713ms total)
T2418 013:982 JLINK_ReadMem (0x000050E4, 0x0004 Bytes, ...) -- Read from C cache (4 bytes @ 0x000050E4) - Data: 00 00 00 00  returns 0x00 (0000ms, 0713ms total)
T2418 013:982 JLINK_ReadMem (0x000050E0, 0x0004 Bytes, ...) -- Read from C cache (4 bytes @ 0x000050E0) - Data: E8 03 00 00  returns 0x00 (0000ms, 0713ms total)
T2418 013:982 JLINK_ReadMem (0x000050C4, 0x0004 Bytes, ...) -- Read from C cache (4 bytes @ 0x000050C4) - Data: 05 00 01 00  returns 0x00 (0000ms, 0713ms total)
T2418 013:982 JLINK_ReadMem (0x20000050, 0x0001 Bytes, ...) -- Read from C cache (1 bytes @ 0x20000050) - Data: 01  returns 0x00 (0000ms, 0713ms total)
T2418 014:000 JLINK_ReadMem (0x000020F8, 0x003C Bytes, ...) -- CPU_ReadMem(128 bytes @ 0x000020C0) -- Updating C cache (128 bytes @ 0x000020C0) -- Read from C cache (60 bytes @ 0x000020F8) - Data: 00 BF 00 BF 00 F0 0C FF 00 28 FB D1 00 BF F4 E7 ...  returns 0x00 (0003ms, 0716ms total)
T1B40 016:077 JLINK_Step() -- Read from C cache (2 bytes @ 0x000020F8) -- Simulated  returns 0x00 (0000ms, 0716ms total)
T1B40 016:077 JLINK_ReadReg(R15 (PC))  returns 0x000020FA (0000ms, 0716ms total)
T1B40 016:077 JLINK_ReadReg(XPSR)  returns 0x01000000 (0000ms, 0716ms total)
T1B40 016:077 JLINK_SetBPEx(Addr = 0x00001A8A, Type = 0xFFFFFFF2)  returns 0x0000000E (0000ms, 0716ms total)
T1B40 016:077 JLINK_SetBPEx(Addr = 0x000020F8, Type = 0xFFFFFFF2)  returns 0x0000000F (0000ms, 0716ms total)
T1B40 016:077 JLINK_SetBPEx(Addr = 0x000011EA, Type = 0xFFFFFFF2)  returns 0x00000010 (0000ms, 0716ms total)
T1B40 016:077 JLINK_SetBPEx(Addr = 0x00001200, Type = 0xFFFFFFF2)  returns 0x00000011 (0000ms, 0716ms total)
T1B40 016:077 JLINK_Go() -- CPU_WriteMem(4 bytes @ 0xE0002000) -- CPU_WriteMem(4 bytes @ 0xE0002000) -- CPU_WriteMem(4 bytes @ 0xE0002000) -- CPU_WriteMem(4 bytes @ 0xE0002000) -- CPU_ReadMem(4 bytes @ 0xE0001000) -- CPU_WriteMem(4 bytes @ 0xE0001004) (0005ms, 0721ms total)
T1B40 016:182 JLINK_IsHalted()  returns TRUE (0007ms, 0728ms total)
T1B40 016:189 JLINK_Halt()  returns 0x00 (0000ms, 0721ms total)
T1B40 016:189 JLINK_IsHalted()  returns TRUE (0000ms, 0721ms total)
T1B40 016:189 JLINK_IsHalted()  returns TRUE (0000ms, 0721ms total)
T1B40 016:189 JLINK_IsHalted()  returns TRUE (0000ms, 0721ms total)
T1B40 016:189 JLINK_ReadReg(R15 (PC))  returns 0x000011EA (0000ms, 0721ms total)
T1B40 016:189 JLINK_ReadReg(XPSR)  returns 0x81000000 (0000ms, 0721ms total)
T1B40 016:189 JLINK_ClrBPEx(BPHandle = 0x0000000E)  returns 0x00 (0000ms, 0721ms total)
T1B40 016:189 JLINK_ClrBPEx(BPHandle = 0x0000000F)  returns 0x00 (0000ms, 0721ms total)
T1B40 016:189 JLINK_ClrBPEx(BPHandle = 0x00000010)  returns 0x00 (0000ms, 0721ms total)
T1B40 016:189 JLINK_ClrBPEx(BPHandle = 0x00000011)  returns 0x00 (0000ms, 0721ms total)
T1B40 016:189 JLINK_ReadMemU32(0xE000ED30, 0x0001 Items, ...) -- CPU_ReadMem(4 bytes @ 0xE000ED30) - Data: 02 00 00 00  returns 0x01 (0000ms, 0721ms total)
T1B40 016:189 JLINK_ReadMemU32(0xE0001028, 0x0001 Items, ...) -- CPU_ReadMem(4 bytes @ 0xE0001028) - Data: 00 00 00 00  returns 0x01 (0001ms, 0722ms total)
T1B40 016:190 JLINK_ReadMemU32(0xE0001038, 0x0001 Items, ...) -- CPU_ReadMem(4 bytes @ 0xE0001038) - Data: 00 02 00 00  returns 0x01 (0000ms, 0722ms total)
T1B40 016:190 JLINK_ReadMemU32(0xE0001048, 0x0001 Items, ...) -- CPU_ReadMem(4 bytes @ 0xE0001048) - Data: 00 00 00 00  returns 0x01 (0001ms, 0723ms total)
T1B40 016:191 JLINK_ReadMemU32(0xE0001058, 0x0001 Items, ...) -- CPU_ReadMem(4 bytes @ 0xE0001058) - Data: 00 00 00 00  returns 0x01 (0000ms, 0723ms total)
T1B40 016:191 JLINK_ReadReg(R0)  returns 0x00000000 (0000ms, 0723ms total)
T1B40 016:191 JLINK_ReadReg(R1)  returns 0x00000000 (0000ms, 0723ms total)
T1B40 016:191 JLINK_ReadReg(R2)  returns 0x00000000 (0000ms, 0723ms total)
T1B40 016:191 JLINK_ReadReg(R3)  returns 0x20000B24 (0000ms, 0723ms total)
T1B40 016:191 JLINK_ReadReg(R4)  returns 0x00000064 (0000ms, 0723ms total)
T1B40 016:191 JLINK_ReadReg(R5)  returns 0x00000000 (0000ms, 0723ms total)
T1B40 016:191 JLINK_ReadReg(R6)  returns 0x00000000 (0000ms, 0723ms total)
T1B40 016:191 JLINK_ReadReg(R7)  returns 0x00000000 (0000ms, 0723ms total)
T1B40 016:191 JLINK_ReadReg(R8)  returns 0x00000000 (0000ms, 0723ms total)
T1B40 016:191 JLINK_ReadReg(R9)  returns 0x00000000 (0000ms, 0723ms total)
T1B40 016:191 JLINK_ReadReg(R10)  returns 0x00000000 (0000ms, 0723ms total)
T1B40 016:191 JLINK_ReadReg(R11)  returns 0x00000000 (0000ms, 0723ms total)
T1B40 016:191 JLINK_ReadReg(R12)  returns 0x00004A51 (0000ms, 0723ms total)
T1B40 016:191 JLINK_ReadReg(R13 (SP))  returns 0x20000B10 (0000ms, 0723ms total)
T1B40 016:191 JLINK_ReadReg(R14)  returns 0x0000118F (0000ms, 0723ms total)
T1B40 016:191 JLINK_ReadReg(R15 (PC))  returns 0x000011EA (0000ms, 0723ms total)
T1B40 016:191 JLINK_ReadReg(XPSR)  returns 0x81000000 (0000ms, 0723ms total)
T1B40 016:191 JLINK_ReadReg(MSP)  returns 0x20005628 (0000ms, 0723ms total)
T1B40 016:191 JLINK_ReadReg(PSP)  returns 0x20000B10 (0000ms, 0723ms total)
T1B40 016:191 JLINK_ReadReg(CFBP)  returns 0x02000000 (0000ms, 0723ms total)
T1B40 016:191 JLINK_ReadReg(FPSCR)  returns 0x03000000 (0010ms, 0733ms total)
T1B40 016:201 JLINK_ReadReg(FPS0)  returns 0x00000000 (0000ms, 0733ms total)
T1B40 016:201 JLINK_ReadReg(FPS1)  returns 0x00000000 (0000ms, 0733ms total)
T1B40 016:201 JLINK_ReadReg(FPS2)  returns 0x00000000 (0000ms, 0733ms total)
T1B40 016:201 JLINK_ReadReg(FPS3)  returns 0x00000000 (0000ms, 0733ms total)
T1B40 016:201 JLINK_ReadReg(FPS4)  returns 0x00000000 (0000ms, 0733ms total)
T1B40 016:202 JLINK_ReadReg(FPS5)  returns 0x00000000 (0000ms, 0734ms total)
T1B40 016:202 JLINK_ReadReg(FPS6)  returns 0x00000000 (0000ms, 0734ms total)
T1B40 016:202 JLINK_ReadReg(FPS7)  returns 0x00000000 (0000ms, 0734ms total)
T1B40 016:202 JLINK_ReadReg(FPS8)  returns 0x00000000 (0000ms, 0734ms total)
T1B40 016:202 JLINK_ReadReg(FPS9)  returns 0x00000000 (0000ms, 0734ms total)
